Freq.	V(out)/V(in)
Step Information: R=1K  (Step: 3/3)
1.00000000000000e+00	(-8.51288539069573e+01dB,8.99250619081392e+01°)
1.12201845430196e+00	(-8.41288558301233e+01dB,8.99159180904119e+01°)
1.25892541179417e+00	(-8.31288582512445e+01dB,8.99056585632983e+01°)
1.41253754462275e+00	(-8.21288612992537e+01dB,8.98941471917761e+01°)
1.58489319246111e+00	(-8.11288651364670e+01dB,8.98812312307084e+01°)
1.77827941003892e+00	(-8.01288699672271e+01dB,8.98667392984643e+01°)
1.99526231496888e+00	(-7.91288760487864e+01dB,8.98504791034289e+01°)
2.23872113856834e+00	(-7.81288837050040e+01dB,8.98322348933169e+01°)
2.51188643150958e+00	(-7.71288933435912e+01dB,8.98117645935524e+01°)
2.81838293126445e+00	(-7.61289054778239e+01dB,8.97887965968920e+01°)
3.16227766016838e+00	(-7.51289207538686e+01dB,8.97630261619172e+01°)
3.54813389233575e+00	(-7.41289399851939e+01dB,8.97341113729080e+01°)
3.98107170553497e+00	(-7.31289641958767e+01dB,8.97016686079236e+01°)
4.46683592150963e+00	(-7.21289946751287e+01dB,8.96652674555698e+01°)
5.01187233627272e+00	(-7.11290330459293e+01dB,8.96244250138685e+01°)
5.62341325190348e+00	(-7.01290813514230e+01dB,8.95785994967972e+01°)
6.30957344480192e+00	(-6.91291421636727e+01dB,8.95271830654038e+01°)
7.07945784384137e+00	(-6.81292187205482e+01dB,8.94694937907920e+01°)
7.94328234724280e+00	(-6.71293150980257e+01dB,8.94047666458016e+01°)
8.91250938133744e+00	(-6.61294364270398e+01dB,8.93321434107004e+01°)
9.99999999999998e+00	(-6.51295891664000e+01dB,8.92506613658335e+01°)
1.12201845430196e+01	(-6.41297814462232e+01dB,8.91592406308783e+01°)
1.25892541179416e+01	(-6.31300235000756e+01dB,8.90566699964236e+01°)
1.41253754462275e+01	(-6.21303282086389e+01dB,8.89415910792212e+01°)
1.58489319246111e+01	(-6.11307117835962e+01dB,8.88124806181117e+01°)
1.77827941003892e+01	(-6.01311946276911e+01dB,8.86676307142698e+01°)
1.99526231496888e+01	(-5.91318024160706e+01dB,8.85051268078285e+01°)
2.23872113856833e+01	(-5.81325674553800e+01dB,8.83228231752693e+01°)
2.51188643150957e+01	(-5.71335303912198e+01dB,8.81183157302754e+01°)
2.81838293126445e+01	(-5.61347423521099e+01dB,8.78889119191338e+01°)
3.16227766016837e+01	(-5.51362676397175e+01dB,8.76315975249327e+01°)
3.54813389233575e+01	(-5.41381871016452e+01dB,8.73430002406039e+01°)
3.98107170553496e+01	(-5.31406023553878e+01dB,8.70193499492848e+01°)
4.46683592150962e+01	(-5.21436410710278e+01dB,8.66564357761476e+01°)
5.01187233627271e+01	(-5.11474635666279e+01dB,8.62495601688332e+01°)
5.62341325190347e+01	(-5.01522710244964e+01dB,8.57934905507496e+01°)
6.30957344480191e+01	(-4.91583156982454e+01dB,8.52824095099321e+01°)
7.07945784384136e+01	(-4.81659135482687e+01dB,8.47098650836413e+01°)
7.94328234724279e+01	(-4.71754598130454e+01dB,8.40687235382821e+01°)
8.91250938133743e+01	(-4.61874480879887e+01dB,8.33511282025580e+01°)
9.99999999999997e+01	(-4.52024935290879e+01dB,8.25484694812569e+01°)
1.12201845430196e+02	(-4.42213608031845e+01dB,8.16513732564480e+01°)
1.25892541179416e+02	(-4.32449973357351e+01dB,8.06497175634448e+01°)
1.41253754462275e+02	(-4.22745722084088e+01dB,7.95326907590351e+01°)
1.58489319246111e+02	(-4.13115206593087e+01dB,7.82889083250711e+01°)
1.77827941003892e+02	(-4.03575934407366e+01dB,7.69066097135206e+01°)
1.99526231496887e+02	(-3.94149091764731e+01dB,7.53739606251138e+01°)
2.23872113856833e+02	(-3.84860062150491e+01dB,7.36794886511045e+01°)
2.51188643150957e+02	(-3.75738882225504e+01dB,7.18126793489034e+01°)
2.81838293126444e+02	(-3.66820549472578e+01dB,6.97647527135469e+01°)
3.16227766016837e+02	(-3.58145065174751e+01dB,6.75296230533366e+01°)
3.54813389233574e+02	(-3.49757070044404e+01dB,6.51050149395804e+01°)
3.98107170553496e+02	(-3.41704920133634e+01dB,6.24936624860745e+01°)
4.46683592150961e+02	(-3.34039074338619e+01dB,5.97044617763384e+01°)
5.01187233627270e+02	(-3.26809738925979e+01dB,5.67533878676340e+01°)
5.62341325190347e+02	(-3.20063847191696e+01dB,5.36639491031645e+01°)
6.30957344480191e+02	(-3.13841630354878e+01dB,5.04669592277215e+01°)
7.07945784384135e+02	(-3.08173215609576e+01dB,4.71994840811334e+01°)
7.94328234724278e+02	(-3.03075800686284e+01dB,4.39029657361228e+01°)
8.91250938133742e+02	(-2.98551934728136e+01dB,4.06207113776016e+01°)
9.99999999999995e+02	(-2.94589256799295e+01dB,3.73950970709470e+01°)
1.12201845430196e+03	(-2.91161747255721e+01dB,3.42649146210207e+01°)
1.25892541179416e+03	(-2.88232231873124e+01dB,3.12632501806617e+01°)
1.41253754462275e+03	(-2.85755652169833e+01dB,2.84161429243204e+01°)
1.58489319246111e+03	(-2.83682541778615e+01dB,2.57420874125983e+01°)
1.77827941003891e+03	(-2.81962223343752e+01dB,2.32522789406385e+01°)
1.99526231496887e+03	(-2.80545406050040e+01dB,2.09513998773309e+01°)
2.23872113856833e+03	(-2.79386048916535e+01dB,1.88387158044476e+01°)
2.51188643150957e+03	(-2.78442505922694e+01dB,1.69092762818525e+01°)
2.81838293126444e+03	(-2.77678062883341e+01dB,1.51550695385798e+01°)
3.16227766016836e+03	(-2.77061015050068e+01dB,1.35660398684524e+01°)
3.54813389233573e+03	(-2.76564434002047e+01dB,1.21309266752209e+01°)
3.98107170553495e+03	(-2.76165750080826e+01dB,1.08379195359296e+01°)
4.46683592150961e+03	(-2.75846246371868e+01dB,9.67514478599442e+00°)
5.01187233627269e+03	(-2.75590530729641e+01dB,8.63100914779472e+00°)
5.62341325190346e+03	(-2.75386027759596e+01dB,7.69442853469732e+00°)
6.30957344480189e+03	(-2.75222514183920e+01dB,6.85496851128283e+00°)
7.07945784384134e+03	(-2.75091708186104e+01dB,6.10291922707632e+00°)
7.94328234724277e+03	(-2.74986915055204e+01dB,5.42932337668915e+00°)
8.91250938133740e+03	(-2.74902726532216e+01dB,4.82597165227519e+00°)
9.99999999999994e+03	(-2.74834768647786e+01dB,4.28537660327229e+00°)
1.12201845430196e+04	(-2.74779491714640e+01dB,3.80073291273211e+00°)
1.25892541179416e+04	(-2.74733995909103e+01dB,3.36586981609031e+00°)
1.41253754462275e+04	(-2.74695886140221e+01dB,2.97519964470306e+00°)
1.58489319246110e+04	(-2.74663150399060e+01dB,2.62366517267556e+00°)
1.77827941003891e+04	(-2.74634056339562e+01dB,2.30668748431499e+00°)
1.99526231496887e+04	(-2.74607061366421e+01dB,2.02011537578309e+00°)
2.23872113856832e+04	(-2.74580731936299e+01dB,1.76017678723122e+00°)
2.51188643150956e+04	(-2.74553668082401e+01dB,1.52343237295216e+00°)
2.81838293126443e+04	(-2.74524429327280e+01dB,1.30673100933707e+00°)
3.16227766016836e+04	(-2.74491458137812e+01dB,1.10716677320127e+00°)
3.54813389233573e+04	(-2.74452996881380e+01dB,9.22036659315900e-01°)
3.98107170553494e+04	(-2.74406993839595e+01dB,7.48798008214318e-01°)
4.46683592150960e+04	(-2.74350993192093e+01dB,5.85024240914230e-01°)
5.01187233627269e+04	(-2.74282002950907e+01dB,4.28356992565249e-01°)
5.62341325190345e+04	(-2.74196333539724e+01dB,2.76452029804147e-01°)
6.30957344480188e+04	(-2.74089397980671e+01dB,1.26915323948129e-01°)
7.07945784384133e+04	(-2.73955462347862e+01dB,-2.27758168624493e-02°)
7.94328234724275e+04	(-2.73787332098699e+01dB,-1.75373805684170e-01°)
8.91250938133739e+04	(-2.73575955862945e+01dB,-3.33994457291138e-01°)
9.99999999999992e+04	(-2.73309922931490e+01dB,-5.02298481125764e-01°)
1.12201845430195e+05	(-2.72974823603541e+01dB,-6.84743174089374e-01°)
1.25892541179416e+05	(-2.72552432147188e+01dB,-8.86937745126797e-01°)
1.41253754462274e+05	(-2.72019659691343e+01dB,-1.11615293361227e+00°)
1.58489319246110e+05	(-2.71347208137012e+01dB,-1.38206297649466e+00°)
1.77827941003891e+05	(-2.70497835701660e+01dB,-1.69784246764010e+00°)
1.99526231496886e+05	(-2.69424120948579e+01dB,-2.08181463082326e+00°)
2.23872113856832e+05	(-2.68065590600869e+01dB,-2.55997372832664e+00°)
2.51188643150956e+05	(-2.66345075858275e+01dB,-3.16992548784526e+00°)
2.81838293126443e+05	(-2.64164238731187e+01dB,-3.96718760840150e+00°)
3.16227766016835e+05	(-2.61398527563168e+01dB,-5.03552697634268e+00°)
3.54813389233572e+05	(-2.57892853133809e+01dB,-6.50438670474901e+00°)
3.98107170553494e+05	(-2.53462418092527e+01dB,-8.57901256865521e+00°)
4.46683592150959e+05	(-2.47912554699157e+01dB,-1.15932563015577e+01°)
5.01187233627268e+05	(-2.41119444890149e+01dB,-1.60998940637831e+01°)
5.62341325190344e+05	(-2.33291991051428e+01dB,-2.30021252962722e+01°)
6.30957344480187e+05	(-2.25695516906551e+01dB,-3.36086825580779e+01°)
7.07945784384131e+05	(-2.21986059837184e+01dB,-4.89831138167464e+01°)
7.94328234724274e+05	(-2.27906265951594e+01dB,-6.76234881808515e+01°)
8.91250938133737e+05	(-2.45283161579138e+01dB,-8.45996302225019e+01°)
9.99999999999990e+05	(-2.69234795075677e+01dB,-9.64358125281529e+01°)
1.12201845430195e+06	(-2.94615929614970e+01dB,-1.03302508769127e+02°)
1.25892541179415e+06	(-3.19052216673296e+01dB,-1.06570253619253e+02°)
1.41253754462274e+06	(-3.41840106078900e+01dB,-1.07368370373821e+02°)
1.58489319246110e+06	(-3.62880678429240e+01dB,-1.06426473684460e+02°)
1.77827941003891e+06	(-3.82237932898764e+01dB,-1.04203394380541e+02°)
1.99526231496886e+06	(-3.99995326255377e+01dB,-1.01001922290515e+02°)
2.23872113856832e+06	(-4.16218971960940e+01dB,-9.70392986453727e+01°)
2.51188643150955e+06	(-4.30955919602939e+01dB,-9.24870297661810e+01°)
2.81838293126442e+06	(-4.44242853609974e+01dB,-8.74923619213036e+01°)
3.16227766016835e+06	(-4.56116480716803e+01dB,-8.21888348603349e+01°)
3.54813389233572e+06	(-4.66622228693359e+01dB,-7.67002306190529e+01°)
3.98107170553493e+06	(-4.75819867732201e+01dB,-7.11406526283827e+01°)
4.46683592150958e+06	(-4.83785656155490e+01dB,-6.56126673965190e+01°)
5.01187233627267e+06	(-4.90611294154251e+01dB,-6.02049347432502e+01°)
5.62341325190343e+06	(-4.96400459273006e+01dB,-5.49903112520045e+01°)
6.30957344480186e+06	(-5.01263955351417e+01dB,-5.00249759630149e+01°)
7.07945784384130e+06	(-5.05314509866478e+01dB,-4.53487313087931e+01°)
7.94328234724273e+06	(-5.08662050260416e+01dB,-4.09863332446109e+01°)
8.91250938133736e+06	(-5.11409977078595e+01dB,-3.69495360287845e+01°)
9.99999999999989e+06	(-5.13652635708275e+01dB,-3.32394931176700e+01°)
1.12201845430195e+07	(-5.15473942227277e+01dB,-2.98492004598405e+01°)
1.25892541179415e+07	(-5.16946970351117e+01dB,-2.67657571944534e+01°)
1.41253754462274e+07	(-5.18134247675577e+01dB,-2.39723141050848e+01°)
1.58489319246110e+07	(-5.19088514159742e+01dB,-2.14496597793127e+01°)
1.77827941003890e+07	(-5.19853735335737e+01dB,-1.91774499046339e+01°)
1.99526231496886e+07	(-5.20466214451993e+01dB,-1.71351173929414e+01°)
2.23872113856831e+07	(-5.20955697583479e+01dB,-1.53025152885780e+01°)
2.51188643150955e+07	(-5.21346406933063e+01dB,-1.36603467626044e+01°)
2.81838293126442e+07	(-5.21657968268935e+01dB,-1.21904320985796e+01°)
3.16227766016834e+07	(-5.21906219518961e+01dB,-1.08758551298858e+01°)
3.54813389233571e+07	(-5.22103900875469e+01dB,-9.70102340734483e+00°)
3.98107170553493e+07	(-5.22261234418452e+01dB,-8.65166872034438e+00°)
4.46683592150958e+07	(-5.22386405040003e+01dB,-7.71480802650009e+00°)
5.01187233627266e+07	(-5.22485955743603e+01dB,-6.87867951105963e+00°)
5.62341325190342e+07	(-5.22565110202081e+01dB,-6.13266433242203e+00°)
6.30957344480186e+07	(-5.22628034466004e+01dB,-5.46720144554981e+00°)
7.07945784384129e+07	(-5.22678048356888e+01dB,-4.87370054920806e+00°)
7.94328234724272e+07	(-5.22717795621199e+01dB,-4.34445649123414e+00°)
8.91250938133734e+07	(-5.22749380512620e+01dB,-3.87256724353282e+00°)
9.99999999999987e+07	(-5.22774477187697e+01dB,-3.45185669499321e+00°)
1.12201845430195e+08	(-5.22794417175603e+01dB,-3.07680291497185e+00°)
1.25892541179415e+08	(-5.22810259221312e+01dB,-2.74247213422224e+00°)
1.41253754462274e+08	(-5.22822844994136e+01dB,-2.44445842423837e+00°)
1.58489319246109e+08	(-5.22832843484123e+01dB,-2.17882888335877e+00°)
1.77827941003890e+08	(-5.22840786359444e+01dB,-1.94207403818512e+00°)
1.99526231496885e+08	(-5.22847096109898e+01dB,-1.73106310877920e+00°)
2.23872113856831e+08	(-5.22852108438869e+01dB,-1.54300376528495e+00°)
2.51188643150955e+08	(-5.22856090073111e+01dB,-1.37540599681126e+00°)
2.81838293126442e+08	(-5.22859252924175e+01dB,-1.22604972138087e+00°)
3.16227766016834e+08	(-5.22861765346553e+01dB,-1.09295579045960e+00°)
3.54813389233571e+08	(-5.22863761086127e+01dB,-9.74360052772949e-01°)
3.98107170553492e+08	(-5.22865346391908e+01dB,-8.68690177768362e-01°)
4.46683592150957e+08	(-5.22866605667394e+01dB,-7.74544954958511e-01°)
5.01187233627265e+08	(-5.22867605961090e+01dB,-6.90675817289633e-01°)
5.62341325190341e+08	(-5.22868400534393e+01dB,-6.15970355594404e-01°)
6.30957344480185e+08	(-5.22869031696261e+01dB,-5.49437617153191e-01°)
7.07945784384128e+08	(-5.22869533055212e+01dB,-4.90194994163792e-01°)
7.94328234724270e+08	(-5.22869931308464e+01dB,-4.37456545215408e-01°)
8.91250938133733e+08	(-5.22870247663195e+01dB,-3.90522583265265e-01°)
1.00000000000000e+09	(-5.22870498965675e+01dB,-3.48770412081989e-01°)
